
T6B24 000:381 SEGGER J-Link V4.96d Log File (0001ms, 0281ms total)
T6B24 000:381 DLL Compiled: Jan 29 2015 11:45:37 (0001ms, 0281ms total)
T6B24 000:381 Logging started @ 2023-02-25 11:28 (0001ms, 0281ms total)
T6B24 000:382 JLINK_SetWarnOutHandler(...) (0000ms, 0281ms total)
T6B24 000:382 JLINK_OpenEx(...)
Firmware: J-Link ARM-OB STM32 compiled Aug 22 2012 19:52:04
Hardware: V7.00
S/N: 20090928
Feature(s): RDI,FlashDL,FlashBP,JFlash,GDBFull  returns O.K. (0276ms, 0557ms total)
T6B24 000:658 JLINK_SetErrorOutHandler(...) (0000ms, 0557ms total)
T6B24 000:658 JLINK_ExecCommand("ProjectFile = "F:\BaiduSyncdisk\NCUT-IFR-M.2\IFRProj\StackLite-DualDrive Project\StackerLite-DualDrive_V1.1_Simulink\STM32CUBEMX\MDK-ARM\JLinkSettings.ini"", ...)Device "UNSPECIFIED" selected.  returns 0x00 (0002ms, 0559ms total)
T6B24 000:660 JLINK_ExecCommand("Device = STM32F405RGTx", ...)Device "UNSPECIFIED" selected.  returns 0x00 (0000ms, 0559ms total)
T6B24 000:660 JLINK_ExecCommand("DisableConnectionTimeout", ...)  returns 0x01 (0000ms, 0559ms total)
T6B24 000:660 JLINK_GetHardwareVersion()  returns 0x11170 (0000ms, 0559ms total)
T6B24 000:660 JLINK_GetDLLVersion()  returns 49604 (0000ms, 0559ms total)
T6B24 000:660 JLINK_GetFirmwareString(...) (0000ms, 0559ms total)
T6B24 000:660 JLINK_GetDLLVersion()  returns 49604 (0001ms, 0560ms total)
T6B24 000:661 JLINK_GetCompileDateTime() (0000ms, 0560ms total)
T6B24 000:661 JLINK_GetFirmwareString(...) (0000ms, 0560ms total)
T6B24 000:661 JLINK_GetHardwareVersion()  returns 0x11170 (0000ms, 0560ms total)
T6B24 000:661 JLINK_TIF_Select(JLINKARM_TIF_SWD)  returns 0x00 (0001ms, 0561ms total)
T6B24 000:662 JLINK_SetSpeed(20000) (0000ms, 0561ms total)
T6B24 000:662 JLINK_GetId() >0x108 TIF>Found SWD-DP with ID 0x2BA01477 >0x0D TIF> >0x21 TIF> >0x0D TIF> >0x28 TIF> >0x0D TIF> >0x28 TIF> >0x0D TIF> >0x21 TIF> >0x0D TIF> >0x28 TIF> >0x0D TIF> >0x21 TIF> >0x0D TIF> >0x21 TIF> >0x0D TIF> >0x21 TIF> >0x0D TIF> >0x21 TIF> >0x0D TIF> >0x28 TIF> >0x0D TIF> >0x28 TIF> >0x0D TIF> >0x21 TIF> >0x0D TIF> >0x28 TIF> >0x0D TIF> >0x28 TIF> >0x0D TIF> >0x28 TIF> >0x0D TIF> >0x21 TIF> >0x0D TIF> >0x21 TIF> >0x0D TIF> >0x28 TIF> >0x0D TIF> >0x21 TIF> >0x0D TIF>
 >0x21 TIF>Found Cortex-M4 r0p1, Little endian. -- CPU_WriteMem(4 bytes @ 0xE0002000) -- CPU_ReadMem(4 bytes @ 0xE000EDF0) -- CPU_WriteMem(4 bytes @ 0xE000EDF0) -- CPU_ReadMem(4 bytes @ 0xE0002000)FPUnit: 6 code (BP) slots and 2 literal slots -- CPU_ReadMem(4 bytes @ 0xE000EDFC) -- CPU_WriteMem(4 bytes @ 0xE000EDFC) -- CPU_ReadMem(4 bytes @ 0xE0001000) -- CPU_WriteMem(4 bytes @ 0xE0001000) -- CPU_ReadMem(4 bytes @ 0xE000ED88) -- CPU_WriteMem(4 bytes @ 0xE000ED88) -- CPU_ReadMem(4 bytes @ 0xE000ED88)
 -- CPU_WriteMem(4 bytes @ 0xE000ED88) -- CPU_ReadMem(4 bytes @ 0xE00FF010)TPIU fitted. -- CPU_ReadMem(4 bytes @ 0xE00FF014)ETM fitted. -- CPU_ReadMem(4 bytes @ 0xE00FF018) >0x0D TIF> >0x21 TIF>  returns 0x2BA01477 (0031ms, 0592ms total)
T6B24 000:693 JLINK_GetDLLVersion()  returns 49604 (0000ms, 0592ms total)
T6B24 000:693 JLINK_CORE_GetFound()  returns 0xE0000FF (0000ms, 0592ms total)
T6B24 000:693 JLINK_GetDebugInfo(0x100) -- Value=0xE00FF003  returns 0x00 (0000ms, 0592ms total)
T6B24 000:694 JLINK_ReadMem (0xE00FF000, 0x0020 Bytes, ...) -- CPU is running -- CPU_ReadMem(32 bytes @ 0xE00FF000) - Data: 03 F0 F0 FF 03 20 F0 FF 03 30 F0 FF 03 10 F0 FF ...  returns 0x00 (0001ms, 0593ms total)
T6B24 000:695 JLINK_ReadMem (0xE000EFF0, 0x0010 Bytes, ...) -- CPU is running -- CPU_ReadMem(16 bytes @ 0xE000EFF0) - Data: 0D 00 00 00 E0 00 00 00 05 00 00 00 B1 00 00 00  returns 0x00 (0001ms, 0594ms total)
T6B24 000:696 JLINK_ReadMem (0xE000EFD0, 0x0020 Bytes, ...) -- CPU is running -- CPU_ReadMem(32 bytes @ 0xE000EFD0) - Data: 04 00 00 00 00 00 00 00 00 00 00 00 00 00 00 00 ...  returns 0x00 (0001ms, 0595ms total)
T6B24 000:697 JLINK_ReadMem (0xE0001FF0, 0x0010 Bytes, ...) -- CPU is running -- CPU_ReadMem(16 bytes @ 0xE0001FF0) - Data: 0D 00 00 00 E0 00 00 00 05 00 00 00 B1 00 00 00  returns 0x00 (0001ms, 0596ms total)
T6B24 000:698 JLINK_ReadMem (0xE0001FD0, 0x0020 Bytes, ...) -- CPU is running -- CPU_ReadMem(32 bytes @ 0xE0001FD0) - Data: 04 00 00 00 00 00 00 00 00 00 00 00 00 00 00 00 ...  returns 0x00 (0001ms, 0597ms total)
T6B24 000:699 JLINK_ReadMem (0xE0002FF0, 0x0010 Bytes, ...) -- CPU is running -- CPU_ReadMem(16 bytes @ 0xE0002FF0) - Data: 0D 00 00 00 E0 00 00 00 05 00 00 00 B1 00 00 00  returns 0x00 (0001ms, 0598ms total)
T6B24 000:700 JLINK_ReadMem (0xE0002FD0, 0x0020 Bytes, ...) -- CPU is running -- CPU_ReadMem(32 bytes @ 0xE0002FD0) - Data: 04 00 00 00 00 00 00 00 00 00 00 00 00 00 00 00 ...  returns 0x00 (0001ms, 0599ms total)
T6B24 000:701 JLINK_ReadMem (0xE0000FF0, 0x0010 Bytes, ...) -- CPU is running -- CPU_ReadMem(16 bytes @ 0xE0000FF0) - Data: 0D 00 00 00 E0 00 00 00 05 00 00 00 B1 00 00 00  returns 0x00 (0000ms, 0599ms total)
T6B24 000:701 JLINK_ReadMem (0xE0000FD0, 0x0020 Bytes, ...) -- CPU is running -- CPU_ReadMem(32 bytes @ 0xE0000FD0) - Data: 04 00 00 00 00 00 00 00 00 00 00 00 00 00 00 00 ...  returns 0x00 (0001ms, 0600ms total)
T6B24 000:702 JLINK_ReadMem (0xE0040FF0, 0x0010 Bytes, ...) -- CPU is running -- CPU_ReadMem(16 bytes @ 0xE0040FF0) - Data: 0D 00 00 00 90 00 00 00 05 00 00 00 B1 00 00 00  returns 0x00 (0001ms, 0601ms total)
T6B24 000:703 JLINK_ReadMem (0xE0040FD0, 0x0020 Bytes, ...) -- CPU is running -- CPU_ReadMem(32 bytes @ 0xE0040FD0) - Data: 04 00 00 00 00 00 00 00 00 00 00 00 00 00 00 00 ...  returns 0x00 (0001ms, 0602ms total)
T6B24 000:704 JLINK_ReadMem (0xE0041FF0, 0x0010 Bytes, ...) -- CPU is running -- CPU_ReadMem(16 bytes @ 0xE0041FF0) - Data: 0D 00 00 00 90 00 00 00 05 00 00 00 B1 00 00 00  returns 0x00 (0001ms, 0603ms total)
T6B24 000:705 JLINK_ReadMem (0xE0041FD0, 0x0020 Bytes, ...) -- CPU is running -- CPU_ReadMem(32 bytes @ 0xE0041FD0) - Data: 04 00 00 00 00 00 00 00 00 00 00 00 00 00 00 00 ...  returns 0x00 (0001ms, 0604ms total)
T6B24 000:706 JLINK_ReadMemU32(0xE000EF40, 0x0001 Items, ...) -- CPU is running -- CPU_ReadMem(4 bytes @ 0xE000EF40) - Data: 21 00 11 10  returns 0x01 (0001ms, 0605ms total)
T6B24 000:707 JLINK_ReadMemU32(0xE000EF44, 0x0001 Items, ...) -- CPU is running -- CPU_ReadMem(4 bytes @ 0xE000EF44) - Data: 11 00 00 11  returns 0x01 (0000ms, 0605ms total)
T6B24 000:707 JLINK_ReadMemU32(0xE000ED00, 0x0001 Items, ...) -- CPU is running -- CPU_ReadMem(4 bytes @ 0xE000ED00) - Data: 41 C2 0F 41  returns 0x01 (0001ms, 0606ms total)
T6B24 000:708 JLINK_SetResetType(JLINKARM_RESET_TYPE_NORMAL)  returns JLINKARM_RESET_TYPE_NORMAL (0000ms, 0606ms total)
T6B24 000:708 JLINK_Reset() -- CPU is running -- CPU_WriteMem(4 bytes @ 0xE000EDF0) -- CPU is running -- CPU_WriteMem(4 bytes @ 0xE000EDFC) >0x35 TIF> -- CPU is running -- CPU_WriteMem(4 bytes @ 0xE000ED0C) -- CPU is running -- CPU_ReadMem(4 bytes @ 0xE000EDF0) -- CPU is running -- CPU_ReadMem(4 bytes @ 0xE000EDF0) -- CPU is running -- CPU_WriteMem(4 bytes @ 0xE000EDF0) -- CPU is running -- CPU_WriteMem(4 bytes @ 0xE000EDFC) -- CPU is running -- CPU_ReadMem(4 bytes @ 0xE000EDF0)
 -- CPU_WriteMem(4 bytes @ 0xE0002000) -- CPU_ReadMem(4 bytes @ 0xE000EDFC) -- CPU_ReadMem(4 bytes @ 0xE0001000) (0021ms, 0627ms total)
T6B24 000:729 JLINK_ReadReg(R15 (PC))  returns 0x08000270 (0000ms, 0627ms total)
T6B24 000:729 JLINK_ReadReg(XPSR)  returns 0x01000000 (0000ms, 0627ms total)
T6B24 000:729 JLINK_Halt()  returns 0x00 (0000ms, 0627ms total)
T6B24 000:729 JLINK_IsHalted()  returns TRUE (0000ms, 0627ms total)
T6B24 000:729 JLINK_ReadMemU32(0xE000EDF0, 0x0001 Items, ...) -- CPU_ReadMem(4 bytes @ 0xE000EDF0) - Data: 03 00 03 00  returns 0x01 (0000ms, 0627ms total)
T6B24 000:729 JLINK_WriteU32(0xE000EDF0, 0xA05F0003) -- CPU_WriteMem(4 bytes @ 0xE000EDF0)  returns 0x00 (0001ms, 0628ms total)
T6B24 000:730 JLINK_WriteU32(0xE000EDFC, 0x01000000) -- CPU_WriteMem(4 bytes @ 0xE000EDFC)  returns 0x00 (0001ms, 0629ms total)
T6B24 000:735 JLINK_GetHWStatus(...)  returns 0x00 (0000ms, 0629ms total)
T6B24 000:735 JLINK_GetNumBPUnits(Type = 0xFFFFFF00)  returns 0x06 (0000ms, 0629ms total)
T6B24 000:735 JLINK_GetNumBPUnits(Type = 0xF0)  returns 0x2000 (0000ms, 0629ms total)
T6B24 000:735 JLINK_GetNumWPUnits()  returns 0x04 (0000ms, 0629ms total)
T6B24 000:735 JLINK_GetSpeed()  returns 0xFA0 (0000ms, 0629ms total)
T6B24 000:735 JLINK_ReadMemU32(0xE000E004, 0x0001 Items, ...) -- CPU_ReadMem(4 bytes @ 0xE000E004) - Data: 02 00 00 00  returns 0x01 (0001ms, 0630ms total)
T6B24 000:736 JLINK_ReadMemU32(0xE000E004, 0x0001 Items, ...) -- CPU_ReadMem(4 bytes @ 0xE000E004) - Data: 02 00 00 00  returns 0x01 (0001ms, 0631ms total)
T6B24 000:737 JLINK_WriteMem(0xE0001000, 0x001C Bytes, ...) - Data: 01 00 00 00 00 00 00 00 00 00 00 00 00 00 00 00 ... -- CPU_WriteMem(28 bytes @ 0xE0001000)  returns 0x1C (0001ms, 0632ms total)
T6B24 000:738 JLINK_ReadMem (0xE0001000, 0x001C Bytes, ...) -- CPU_ReadMem(28 bytes @ 0xE0001000) - Data: 01 00 00 40 00 00 00 00 00 00 00 00 00 00 00 00 ...  returns 0x00 (0001ms, 0633ms total)
T6B24 000:739 JLINK_ReadReg(R15 (PC))  returns 0x08000270 (0000ms, 0633ms total)
T6B24 000:739 JLINK_ReadReg(XPSR)  returns 0x01000000 (0000ms, 0633ms total)
T6B24 000:748 JLINK_ReadMem (0xE0001004, 0x0004 Bytes, ...) -- CPU_ReadMem(4 bytes @ 0xE0001004) - Data: 00 00 00 00  returns 0x00 (0001ms, 0634ms total)
T6B24 000:859 JLINK_SetResetType(JLINKARM_RESET_TYPE_NORMAL)  returns JLINKARM_RESET_TYPE_NORMAL (0000ms, 0634ms total)
T6B24 000:859 JLINK_Reset() -- CPU_WriteMem(4 bytes @ 0xE000EDF0) -- CPU_WriteMem(4 bytes @ 0xE000EDFC) >0x35 TIF> -- CPU_WriteMem(4 bytes @ 0xE000ED0C) -- CPU_ReadMem(4 bytes @ 0xE000EDF0) -- CPU_ReadMem(4 bytes @ 0xE000EDF0) -- CPU_WriteMem(4 bytes @ 0xE000EDF0) -- CPU_WriteMem(4 bytes @ 0xE000EDFC) -- CPU is running -- CPU_ReadMem(4 bytes @ 0xE000EDF0) -- CPU_WriteMem(4 bytes @ 0xE0002000) -- CPU_ReadMem(4 bytes @ 0xE000EDFC) -- CPU_ReadMem(4 bytes @ 0xE0001000) (0022ms, 0656ms total)
T6B24 000:881 JLINK_ReadReg(R15 (PC))  returns 0x08000270 (0000ms, 0656ms total)
T6B24 000:881 JLINK_ReadReg(XPSR)  returns 0x01000000 (0000ms, 0656ms total)
T6B24 000:883 JLINK_ReadMem (0x08000188, 0x003C Bytes, ...) -- CPU_ReadMem(60 bytes @ 0x08000188) - Data: 00 F0 02 F8 00 F0 61 F8 0A A0 90 E8 00 0C 82 44 ...  returns 0x00 (0000ms, 0656ms total)
T6B24 000:883 JLINK_ReadMem (0x080001C4, 0x003C Bytes, ...) -- CPU_ReadMem(60 bytes @ 0x080001C4) - Data: 0A 44 4F F0 00 0C 10 F8 01 3B 13 F0 07 04 08 BF ...  returns 0x00 (0002ms, 0658ms total)
T6B24 000:885 JLINK_ReadMem (0x08000200, 0x003C Bytes, ...) -- CPU_ReadMem(60 bytes @ 0x08000200) - Data: 6D 1E 58 BF 01 F8 01 CB FA D5 05 E0 14 F8 01 6B ...  returns 0x00 (0001ms, 0659ms total)
T6B24 000:886 JLINK_ReadMem (0x0800023C, 0x003C Bytes, ...) -- CPU_ReadMem(60 bytes @ 0x0800023C) - Data: 73 29 00 F0 28 82 00 20 70 47 1F B5 06 F0 3B FC ...  returns 0x00 (0001ms, 0660ms total)
T6B24 001:321 JLINK_ReadMem (0x40026400, 0x00CC Bytes, ...) -- CPU_ReadMem(204 bytes @ 0x40026400) - Data: 00 00 00 00 00 00 00 00 00 00 00 00 00 00 00 00 ...  returns 0x00 (0003ms, 0663ms total)
T6B24 001:324 JLINK_ReadMem (0x400264CC, 0x0004 Bytes, ...) -- CPU_ReadMem(4 bytes @ 0x400264CC) - Data: 00 00 00 00  returns 0x00 (0001ms, 0664ms total)
T6B24 001:501 JLINK_ReadMem (0x40000400, 0x0010 Bytes, ...) -- CPU_ReadMem(16 bytes @ 0x40000400) - Data: 00 00 00 00 00 00 00 00 00 00 00 00 00 00 00 00  returns 0x00 (0000ms, 0664ms total)
T6B24 001:501 JLINK_ReadMem (0x40000410, 0x0004 Bytes, ...) -- CPU_ReadMem(4 bytes @ 0x40000410) - Data: 00 00 00 00  returns 0x00 (0000ms, 0664ms total)
T6B24 001:501 JLINK_ReadMem (0x40000418, 0x0014 Bytes, ...) -- CPU_ReadMem(20 bytes @ 0x40000418) - Data: 00 00 00 00 00 00 00 00 00 00 00 00 00 00 00 00 ...  returns 0x00 (0001ms, 0665ms total)
T6B24 001:502 JLINK_ReadMem (0x4000042C, 0x0004 Bytes, ...) -- CPU_ReadMem(4 bytes @ 0x4000042C) - Data: 00 00 00 00  returns 0x00 (0001ms, 0666ms total)
T6B24 001:503 JLINK_ReadMem (0x40000434, 0x000C Bytes, ...) -- CPU_ReadMem(12 bytes @ 0x40000434) - Data: 00 00 00 00 00 00 00 00 00 00 00 00  returns 0x00 (0001ms, 0667ms total)
T6B24 001:504 JLINK_ReadMem (0x40000440, 0x0004 Bytes, ...) -- CPU_ReadMem(4 bytes @ 0x40000440) - Data: 00 00 00 00  returns 0x00 (0001ms, 0668ms total)
T6B24 001:505 JLINK_ReadMem (0x40000448, 0x0004 Bytes, ...) -- CPU_ReadMem(4 bytes @ 0x40000448) - Data: 00 00 00 00  returns 0x00 (0000ms, 0668ms total)
T6B24 001:505 JLINK_ReadMem (0x4000044C, 0x0004 Bytes, ...) -- CPU_ReadMem(4 bytes @ 0x4000044C) - Data: 00 00 00 00  returns 0x00 (0001ms, 0669ms total)
T6B24 001:666 JLINK_ReadMem (0x40010400, 0x0010 Bytes, ...) -- CPU_ReadMem(16 bytes @ 0x40010400) - Data: 00 00 00 00 00 00 00 00 00 00 00 00 00 00 00 00  returns 0x00 (0000ms, 0669ms total)
T6B24 001:667 JLINK_ReadMem (0x40010410, 0x0004 Bytes, ...) -- CPU_ReadMem(4 bytes @ 0x40010410) - Data: 00 00 00 00  returns 0x00 (0000ms, 0669ms total)
T6B24 001:667 JLINK_ReadMem (0x40010418, 0x0014 Bytes, ...) -- CPU_ReadMem(20 bytes @ 0x40010418) - Data: 00 00 00 00 00 00 00 00 00 00 00 00 00 00 00 00 ...  returns 0x00 (0001ms, 0670ms total)
T6B24 001:668 JLINK_ReadMem (0x4001042C, 0x0004 Bytes, ...) -- CPU_ReadMem(4 bytes @ 0x4001042C) - Data: 00 00 00 00  returns 0x00 (0001ms, 0671ms total)
T6B24 001:669 JLINK_ReadMem (0x40010430, 0x0004 Bytes, ...) -- CPU_ReadMem(4 bytes @ 0x40010430) - Data: 00 00 00 00  returns 0x00 (0000ms, 0671ms total)
T6B24 001:669 JLINK_ReadMem (0x40010434, 0x000C Bytes, ...) -- CPU_ReadMem(12 bytes @ 0x40010434) - Data: 00 00 00 00 00 00 00 00 00 00 00 00  returns 0x00 (0001ms, 0672ms total)
T6B24 001:670 JLINK_ReadMem (0x40010440, 0x0004 Bytes, ...) -- CPU_ReadMem(4 bytes @ 0x40010440) - Data: 00 00 00 00  returns 0x00 (0001ms, 0673ms total)
T6B24 001:671 JLINK_ReadMem (0x40010444, 0x0004 Bytes, ...) -- CPU_ReadMem(4 bytes @ 0x40010444) - Data: 00 00 00 00  returns 0x00 (0000ms, 0673ms total)
T6B24 001:671 JLINK_ReadMem (0x40010448, 0x0004 Bytes, ...) -- CPU_ReadMem(4 bytes @ 0x40010448) - Data: 00 00 00 00  returns 0x00 (0001ms, 0674ms total)
T6B24 001:672 JLINK_ReadMem (0x4001044C, 0x0004 Bytes, ...) -- CPU_ReadMem(4 bytes @ 0x4001044C) - Data: 00 00 00 00  returns 0x00 (0001ms, 0675ms total)
T6B24 005:935 JLINK_ReadMem (0x20000000, 0x0004 Bytes, ...) -- CPU_ReadMem(4 bytes @ 0x20000000) - Data: 00 00 00 00  returns 0x00 (0000ms, 0675ms total)
T6B24 005:941 JLINK_ReadMem (0x20000036, 0x0002 Bytes, ...) -- CPU_ReadMem(2 bytes @ 0x20000036) - Data: E1 0E  returns 0x00 (0000ms, 0675ms total)
T6B24 005:945 JLINK_ReadMem (0x20000034, 0x0002 Bytes, ...) -- CPU_ReadMem(2 bytes @ 0x20000034) - Data: 92 01  returns 0x00 (0001ms, 0676ms total)
T6B24 005:959 JLINK_ReadMem (0x20000025, 0x0003 Bytes, ...) -- CPU_ReadMem(3 bytes @ 0x20000025) - Data: 00 00 00  returns 0x00 (0001ms, 0677ms total)
T6B24 005:968 JLINK_ReadMem (0x2000026C, 0x0002 Bytes, ...) -- CPU_ReadMem(2 bytes @ 0x2000026C) - Data: 00 00  returns 0x00 (0001ms, 0678ms total)
T6B24 005:976 JLINK_ReadMem (0x2000026E, 0x0002 Bytes, ...) -- CPU_ReadMem(2 bytes @ 0x2000026E) - Data: 00 00  returns 0x00 (0001ms, 0679ms total)
T6B24 005:981 JLINK_ReadMem (0x20000360, 0x0020 Bytes, ...) -- CPU_ReadMem(32 bytes @ 0x20000360) - Data: 00 00 00 00 00 00 00 00 00 00 00 00 00 00 00 00 ...  returns 0x00 (0001ms, 0680ms total)
T6B24 005:984 JLINK_ReadMem (0x20000270, 0x0002 Bytes, ...) -- CPU_ReadMem(2 bytes @ 0x20000270) - Data: 00 00  returns 0x00 (0001ms, 0681ms total)
T6B24 005:987 JLINK_ReadMem (0x20000272, 0x0002 Bytes, ...) -- CPU_ReadMem(2 bytes @ 0x20000272) - Data: 00 00  returns 0x00 (0001ms, 0682ms total)
T6B24 005:993 JLINK_ReadMem (0x20000030, 0x0002 Bytes, ...) -- CPU_ReadMem(2 bytes @ 0x20000030) - Data: 00 00  returns 0x00 (0001ms, 0683ms total)
T6B24 006:001 JLINK_ReadMem (0x2000001C, 0x0004 Bytes, ...) -- CPU_ReadMem(4 bytes @ 0x2000001C) - Data: 46 09 00 00  returns 0x00 (0001ms, 0684ms total)
T6B24 006:007 JLINK_ReadMem (0x20000278, 0x0001 Bytes, ...) -- CPU_ReadMem(1 bytes @ 0x20000278) - Data: 00  returns 0x00 (0001ms, 0685ms total)
T6B24 006:012 JLINK_ReadMem (0x20000274, 0x0004 Bytes, ...) -- CPU_ReadMem(4 bytes @ 0x20000274) - Data: 00 00 00 00  returns 0x00 (0001ms, 0686ms total)
T746C 006:216 JLINK_SetBPEx(Addr = 0x080062C0, Type = 0xFFFFFFF2)  returns 0x00000001 (0000ms, 0686ms total)
T746C 006:216 JLINK_Go() -- CPU_WriteMem(4 bytes @ 0xE0002000) -- CPU_WriteMem(4 bytes @ 0xE0002008) -- CPU_WriteMem(4 bytes @ 0xE000200C) -- CPU_WriteMem(4 bytes @ 0xE0002010) -- CPU_WriteMem(4 bytes @ 0xE0002014) -- CPU_WriteMem(4 bytes @ 0xE0002018) -- CPU_WriteMem(4 bytes @ 0xE000201C) -- CPU_WriteMem(4 bytes @ 0xE0001004) (0006ms, 0692ms total)
T746C 006:323 JLINK_IsHalted()  returns TRUE (0003ms, 0695ms total)
T746C 006:326 JLINK_Halt()  returns 0x00 (0000ms, 0692ms total)
T746C 006:326 JLINK_IsHalted()  returns TRUE (0000ms, 0692ms total)
T746C 006:326 JLINK_IsHalted()  returns TRUE (0000ms, 0692ms total)
T746C 006:326 JLINK_IsHalted()  returns TRUE (0000ms, 0692ms total)
T746C 006:326 JLINK_ReadReg(R15 (PC))  returns 0x080062C0 (0000ms, 0692ms total)
T746C 006:326 JLINK_ReadReg(XPSR)  returns 0x21000000 (0000ms, 0692ms total)
T746C 006:326 JLINK_ClrBPEx(BPHandle = 0x00000001)  returns 0x00 (0000ms, 0692ms total)
T746C 006:326 JLINK_ReadMemU32(0xE000ED30, 0x0001 Items, ...) -- CPU_ReadMem(4 bytes @ 0xE000ED30) - Data: 03 00 00 00  returns 0x01 (0001ms, 0693ms total)
T746C 006:327 JLINK_ReadMemU32(0xE0001028, 0x0001 Items, ...) -- CPU_ReadMem(4 bytes @ 0xE0001028) - Data: 00 00 00 00  returns 0x01 (0000ms, 0693ms total)
T746C 006:327 JLINK_ReadMemU32(0xE0001038, 0x0001 Items, ...) -- CPU_ReadMem(4 bytes @ 0xE0001038) - Data: 00 02 00 00  returns 0x01 (0000ms, 0693ms total)
T746C 006:327 JLINK_ReadMemU32(0xE0001048, 0x0001 Items, ...) -- CPU_ReadMem(4 bytes @ 0xE0001048) - Data: 00 00 00 00  returns 0x01 (0001ms, 0694ms total)
T746C 006:328 JLINK_ReadMemU32(0xE0001058, 0x0001 Items, ...) -- CPU_ReadMem(4 bytes @ 0xE0001058) - Data: 00 00 00 00  returns 0x01 (0001ms, 0695ms total)
T746C 006:329 JLINK_ReadReg(R0)  returns 0x20001840 (0000ms, 0695ms total)
T746C 006:329 JLINK_ReadReg(R1)  returns 0x20001A40 (0000ms, 0695ms total)
T746C 006:329 JLINK_ReadReg(R2)  returns 0x20001A40 (0000ms, 0695ms total)
T746C 006:329 JLINK_ReadReg(R3)  returns 0x20001A40 (0000ms, 0695ms total)
T746C 006:329 JLINK_ReadReg(R4)  returns 0x00000000 (0000ms, 0695ms total)
T746C 006:329 JLINK_ReadReg(R5)  returns 0x200017E0 (0000ms, 0695ms total)
T746C 006:329 JLINK_ReadReg(R6)  returns 0x00000000 (0000ms, 0695ms total)
T746C 006:329 JLINK_ReadReg(R7)  returns 0x00000000 (0000ms, 0695ms total)
T746C 006:329 JLINK_ReadReg(R8)  returns 0x00000000 (0000ms, 0695ms total)
T746C 006:329 JLINK_ReadReg(R9)  returns 0x00000000 (0000ms, 0695ms total)
T746C 006:329 JLINK_ReadReg(R10)  returns 0x08006C68 (0000ms, 0695ms total)
T746C 006:329 JLINK_ReadReg(R11)  returns 0x00000000 (0000ms, 0695ms total)
T746C 006:329 JLINK_ReadReg(R12)  returns 0x20001820 (0000ms, 0695ms total)
T746C 006:329 JLINK_ReadReg(R13 (SP))  returns 0x20001E40 (0000ms, 0695ms total)
T746C 006:329 JLINK_ReadReg(R14)  returns 0x08000261 (0001ms, 0696ms total)
T746C 006:330 JLINK_ReadReg(R15 (PC))  returns 0x080062C0 (0000ms, 0696ms total)
T746C 006:330 JLINK_ReadReg(XPSR)  returns 0x21000000 (0000ms, 0696ms total)
T746C 006:330 JLINK_ReadReg(MSP)  returns 0x20001E40 (0000ms, 0696ms total)
T746C 006:330 JLINK_ReadReg(PSP)  returns 0x00000000 (0000ms, 0696ms total)
T746C 006:330 JLINK_ReadReg(CFBP)  returns 0x04000000 (0000ms, 0696ms total)
T746C 006:330 JLINK_ReadReg(FPSCR)  returns 0x03000000 (0005ms, 0701ms total)
T746C 006:335 JLINK_ReadReg(FPS0)  returns 0x00000000 (0000ms, 0701ms total)
T746C 006:335 JLINK_ReadReg(FPS1)  returns 0x00000000 (0000ms, 0701ms total)
T746C 006:335 JLINK_ReadReg(FPS2)  returns 0x00000000 (0000ms, 0701ms total)
T746C 006:335 JLINK_ReadReg(FPS3)  returns 0x00000000 (0000ms, 0701ms total)
T746C 006:335 JLINK_ReadReg(FPS4)  returns 0x00000000 (0000ms, 0701ms total)
T746C 006:335 JLINK_ReadReg(FPS5)  returns 0x00000000 (0000ms, 0701ms total)
T746C 006:335 JLINK_ReadReg(FPS6)  returns 0x00000000 (0000ms, 0701ms total)
T746C 006:335 JLINK_ReadReg(FPS7)  returns 0x00000000 (0000ms, 0701ms total)
T746C 006:335 JLINK_ReadReg(FPS8)  returns 0x00000000 (0000ms, 0701ms total)
T746C 006:335 JLINK_ReadReg(FPS9)  returns 0x00000000 (0000ms, 0701ms total)
T746C 006:335 JLINK_ReadReg(FPS10)  returns 0x00000000 (0001ms, 0702ms total)
T746C 006:336 JLINK_ReadReg(FPS11)  returns 0x00000000 (0000ms, 0702ms total)
T746C 006:336 JLINK_ReadReg(FPS12)  returns 0x00000000 (0000ms, 0702ms total)
T746C 006:336 JLINK_ReadReg(FPS13)  returns 0x00000000 (0000ms, 0702ms total)
T746C 006:336 JLINK_ReadReg(FPS14)  returns 0x00000000 (0000ms, 0702ms total)
T746C 006:336 JLINK_ReadReg(FPS15)  returns 0x00000000 (0000ms, 0702ms total)
T746C 006:336 JLINK_ReadReg(FPS16)  returns 0x00000000 (0000ms, 0702ms total)
T746C 006:336 JLINK_ReadReg(FPS17)  returns 0x00000000 (0000ms, 0702ms total)
T746C 006:336 JLINK_ReadReg(FPS18)  returns 0x00000000 (0000ms, 0702ms total)
T746C 006:336 JLINK_ReadReg(FPS19)  returns 0x00000000 (0000ms, 0702ms total)
T746C 006:336 JLINK_ReadReg(FPS20)  returns 0x00000000 (0000ms, 0702ms total)
T746C 006:336 JLINK_ReadReg(FPS21)  returns 0x00000000 (0000ms, 0702ms total)
T746C 006:336 JLINK_ReadReg(FPS22)  returns 0x00000000 (0000ms, 0702ms total)
T746C 006:336 JLINK_ReadReg(FPS23)  returns 0x00000000 (0000ms, 0702ms total)
T746C 006:336 JLINK_ReadReg(FPS24)  returns 0x00000000 (0000ms, 0702ms total)
T746C 006:336 JLINK_ReadReg(FPS25)  returns 0x00000000 (0000ms, 0702ms total)
T746C 006:336 JLINK_ReadReg(FPS26)  returns 0x00000000 (0000ms, 0702ms total)
T746C 006:336 JLINK_ReadReg(FPS27)  returns 0x00000000 (0000ms, 0702ms total)
T746C 006:336 JLINK_ReadReg(FPS28)  returns 0x00000000 (0000ms, 0702ms total)
T746C 006:336 JLINK_ReadReg(FPS29)  returns 0x00000000 (0000ms, 0702ms total)
T746C 006:336 JLINK_ReadReg(FPS30)  returns 0x00000000 (0000ms, 0702ms total)
T746C 006:336 JLINK_ReadReg(FPS31)  returns 0x00000000 (0000ms, 0702ms total)
T6B24 006:340 JLINK_ReadMem (0x20000000, 0x0004 Bytes, ...) -- CPU_ReadMem(4 bytes @ 0x20000000) - Data: 00 00 00 00  returns 0x00 (0001ms, 0703ms total)
T6B24 006:341 JLINK_ReadMem (0x20000036, 0x0002 Bytes, ...) -- CPU_ReadMem(2 bytes @ 0x20000036) - Data: 00 00  returns 0x00 (0000ms, 0703ms total)
T6B24 006:341 JLINK_ReadMem (0x20000034, 0x0002 Bytes, ...) -- CPU_ReadMem(2 bytes @ 0x20000034) - Data: 00 00  returns 0x00 (0001ms, 0704ms total)
T6B24 006:342 JLINK_ReadMem (0x20000025, 0x0003 Bytes, ...) -- CPU_ReadMem(3 bytes @ 0x20000025) - Data: C0 28 C6  returns 0x00 (0001ms, 0705ms total)
T6B24 006:343 JLINK_ReadMem (0x2000026C, 0x0002 Bytes, ...) -- CPU_ReadMem(2 bytes @ 0x2000026C) - Data: 00 00  returns 0x00 (0001ms, 0706ms total)
T6B24 006:344 JLINK_ReadMem (0x2000026E, 0x0002 Bytes, ...) -- CPU_ReadMem(2 bytes @ 0x2000026E) - Data: 00 00  returns 0x00 (0001ms, 0707ms total)
T6B24 006:345 JLINK_ReadMem (0x20000360, 0x0020 Bytes, ...) -- CPU_ReadMem(32 bytes @ 0x20000360) - Data: 00 00 00 00 00 00 00 00 00 00 00 00 00 00 00 00 ...  returns 0x00 (0001ms, 0708ms total)
T6B24 006:346 JLINK_ReadMem (0x20000270, 0x0002 Bytes, ...) -- CPU_ReadMem(2 bytes @ 0x20000270) - Data: 00 00  returns 0x00 (0001ms, 0709ms total)
T6B24 006:347 JLINK_ReadMem (0x20000272, 0x0002 Bytes, ...) -- CPU_ReadMem(2 bytes @ 0x20000272) - Data: 00 00  returns 0x00 (0000ms, 0709ms total)
T6B24 006:350 JLINK_ReadMem (0x20000030, 0x0002 Bytes, ...) -- CPU_ReadMem(2 bytes @ 0x20000030) - Data: 00 00  returns 0x00 (0000ms, 0709ms total)
T6B24 006:351 JLINK_ReadMem (0x2000001C, 0x0004 Bytes, ...) -- CPU_ReadMem(4 bytes @ 0x2000001C) - Data: 00 00 00 00  returns 0x00 (0001ms, 0710ms total)
T6B24 006:352 JLINK_ReadMem (0x20000278, 0x0001 Bytes, ...) -- CPU_ReadMem(1 bytes @ 0x20000278) - Data: 00  returns 0x00 (0000ms, 0710ms total)
T6B24 006:352 JLINK_ReadMem (0x20000274, 0x0004 Bytes, ...) -- CPU_ReadMem(4 bytes @ 0x20000274) - Data: 00 00 00 00  returns 0x00 (0001ms, 0711ms total)
T6B24 006:353 JLINK_ReadMem (0x40026400, 0x00CC Bytes, ...) -- CPU_ReadMem(204 bytes @ 0x40026400) - Data: 00 00 00 00 00 00 00 00 00 00 00 00 00 00 00 00 ...  returns 0x00 (0003ms, 0714ms total)
T6B24 006:356 JLINK_ReadMem (0x400264CC, 0x0004 Bytes, ...) -- CPU_ReadMem(4 bytes @ 0x400264CC) - Data: 00 00 00 00  returns 0x00 (0001ms, 0715ms total)
T6B24 006:362 JLINK_ReadMem (0x40010400, 0x0010 Bytes, ...) -- CPU_ReadMem(16 bytes @ 0x40010400) - Data: 00 00 00 00 00 00 00 00 00 00 00 00 00 00 00 00  returns 0x00 (0001ms, 0716ms total)
T6B24 006:363 JLINK_ReadMem (0x40010410, 0x0004 Bytes, ...) -- CPU_ReadMem(4 bytes @ 0x40010410) - Data: 00 00 00 00  returns 0x00 (0001ms, 0717ms total)
T6B24 006:364 JLINK_ReadMem (0x40010418, 0x0014 Bytes, ...) -- CPU_ReadMem(20 bytes @ 0x40010418) - Data: 00 00 00 00 00 00 00 00 00 00 00 00 00 00 00 00 ...  returns 0x00 (0001ms, 0718ms total)
T6B24 006:365 JLINK_ReadMem (0x4001042C, 0x0004 Bytes, ...) -- CPU_ReadMem(4 bytes @ 0x4001042C) - Data: 00 00 00 00  returns 0x00 (0001ms, 0719ms total)
T6B24 006:366 JLINK_ReadMem (0x40010430, 0x0004 Bytes, ...) -- CPU_ReadMem(4 bytes @ 0x40010430) - Data: 00 00 00 00  returns 0x00 (0000ms, 0719ms total)
T6B24 006:366 JLINK_ReadMem (0x40010434, 0x000C Bytes, ...) -- CPU_ReadMem(12 bytes @ 0x40010434) - Data: 00 00 00 00 00 00 00 00 00 00 00 00  returns 0x00 (0001ms, 0720ms total)
T6B24 006:367 JLINK_ReadMem (0x40010440, 0x0004 Bytes, ...) -- CPU_ReadMem(4 bytes @ 0x40010440) - Data: 00 00 00 00  returns 0x00 (0001ms, 0721ms total)
T6B24 006:368 JLINK_ReadMem (0x40010444, 0x0004 Bytes, ...) -- CPU_ReadMem(4 bytes @ 0x40010444) - Data: 00 00 00 00  returns 0x00 (0000ms, 0721ms total)
T6B24 006:368 JLINK_ReadMem (0x40010448, 0x0004 Bytes, ...) -- CPU_ReadMem(4 bytes @ 0x40010448) - Data: 00 00 00 00  returns 0x00 (0001ms, 0722ms total)
T6B24 006:369 JLINK_ReadMem (0x4001044C, 0x0004 Bytes, ...) -- CPU_ReadMem(4 bytes @ 0x4001044C) - Data: 00 00 00 00  returns 0x00 (0000ms, 0722ms total)
T6B24 006:371 JLINK_ReadMem (0x40000400, 0x0010 Bytes, ...) -- CPU_ReadMem(16 bytes @ 0x40000400) - Data: 00 00 00 00 00 00 00 00 00 00 00 00 00 00 00 00  returns 0x00 (0001ms, 0723ms total)
T6B24 006:372 JLINK_ReadMem (0x40000410, 0x0004 Bytes, ...) -- CPU_ReadMem(4 bytes @ 0x40000410) - Data: 00 00 00 00  returns 0x00 (0001ms, 0724ms total)
T6B24 006:373 JLINK_ReadMem (0x40000418, 0x0014 Bytes, ...) -- CPU_ReadMem(20 bytes @ 0x40000418) - Data: 00 00 00 00 00 00 00 00 00 00 00 00 00 00 00 00 ...  returns 0x00 (0001ms, 0725ms total)
T6B24 006:374 JLINK_ReadMem (0x4000042C, 0x0004 Bytes, ...) -- CPU_ReadMem(4 bytes @ 0x4000042C) - Data: 00 00 00 00  returns 0x00 (0000ms, 0725ms total)
T6B24 006:374 JLINK_ReadMem (0x40000434, 0x000C Bytes, ...) -- CPU_ReadMem(12 bytes @ 0x40000434) - Data: 00 00 00 00 00 00 00 00 00 00 00 00  returns 0x00 (0001ms, 0726ms total)
T6B24 006:375 JLINK_ReadMem (0x40000440, 0x0004 Bytes, ...) -- CPU_ReadMem(4 bytes @ 0x40000440) - Data: 00 00 00 00  returns 0x00 (0001ms, 0727ms total)
T6B24 006:376 JLINK_ReadMem (0x40000448, 0x0004 Bytes, ...) -- CPU_ReadMem(4 bytes @ 0x40000448) - Data: 00 00 00 00  returns 0x00 (0000ms, 0727ms total)
T6B24 006:376 JLINK_ReadMem (0x4000044C, 0x0004 Bytes, ...) -- CPU_ReadMem(4 bytes @ 0x4000044C) - Data: 00 00 00 00  returns 0x00 (0001ms, 0728ms total)
T6B24 006:384 JLINK_ReadMem (0x080061C0, 0x003C Bytes, ...) -- CPU_ReadMem(64 bytes @ 0x080061C0) -- Updating DA cache (64 bytes @ 0x080061C0) -- Read from DA cache (60 bytes @ 0x080061C0) - Data: 21 E0 2B 48 00 68 4F F4 96 71 B0 FB F1 F2 01 FB ...  returns 0x00 (0002ms, 0730ms total)
T6B24 006:386 JLINK_ReadMem (0x080061FC, 0x003C Bytes, ...) -- CPU_ReadMem(64 bytes @ 0x08006200) -- Updating DA cache (64 bytes @ 0x08006200) -- Read from DA cache (60 bytes @ 0x080061FC) - Data: 1D 49 08 70 48 70 78 20 88 70 1A 48 00 68 05 21 ...  returns 0x00 (0001ms, 0731ms total)
T6B24 006:387 JLINK_ReadMem (0x08006238, 0x003C Bytes, ...) -- CPU_ReadMem(64 bytes @ 0x08006240) -- Updating DA cache (64 bytes @ 0x08006240) -- Read from DA cache (60 bytes @ 0x08006238) - Data: 01 FB 12 00 05 28 03 D1 01 20 0D 49 08 70 02 E0 ...  returns 0x00 (0001ms, 0732ms total)
T6B24 006:388 JLINK_ReadMem (0x08006284, 0x003C Bytes, ...) -- CPU_ReadMem(64 bytes @ 0x08006280) -- Updating DA cache (64 bytes @ 0x08006280) -- Read from DA cache (60 bytes @ 0x08006284) - Data: F0 B5 03 46 0C 46 18 88 00 21 13 E0 67 5C 80 EA ...  returns 0x00 (0002ms, 0734ms total)
T6B24 006:390 JLINK_ReadMem (0x080062C0, 0x003C Bytes, ...) -- CPU_ReadMem(64 bytes @ 0x080062C0) -- Updating DA cache (64 bytes @ 0x080062C0) -- Read from DA cache (60 bytes @ 0x080062C0) - Data: FB F7 9C FB FE F7 34 FF FD F7 FA FE FD F7 9C FE ...  returns 0x00 (0001ms, 0735ms total)
T746C 008:181 JLINK_Go() -- CPU_WriteMem(4 bytes @ 0xE0002008) (0002ms, 0737ms total)
T746C 008:285 JLINK_IsHalted()  returns FALSE (0000ms, 0737ms total)
T746C 008:386 JLINK_IsHalted()  returns FALSE (0000ms, 0737ms total)
T746C 008:488 JLINK_IsHalted()  returns FALSE (0000ms, 0737ms total)
T746C 008:590 JLINK_IsHalted()  returns FALSE (0000ms, 0737ms total)
T746C 008:691 JLINK_ReadMemU32(0xE0001004, 0x0001 Items, ...) -- CPU is running -- CPU_ReadMem(4 bytes @ 0xE0001004) - Data: D7 70 18 05  returns 0x01 (0000ms, 0737ms total)
T6B24 008:692 JLINK_ReadMem (0x20000000, 0x0004 Bytes, ...) -- CPU is running -- CPU_ReadMem(4 bytes @ 0x20000000) - Data: 00 00 00 00  returns 0x00 (0001ms, 0738ms total)
T6B24 008:693 JLINK_ReadMem (0x20000036, 0x0002 Bytes, ...) -- CPU is running -- CPU_ReadMem(2 bytes @ 0x20000036) - Data: E5 0E  returns 0x00 (0000ms, 0738ms total)
T6B24 008:693 JLINK_ReadMem (0x20000034, 0x0002 Bytes, ...) -- CPU is running -- CPU_ReadMem(2 bytes @ 0x20000034) - Data: 82 01  returns 0x00 (0001ms, 0739ms total)
T6B24 008:695 JLINK_ReadMem (0x20000025, 0x0003 Bytes, ...) -- CPU is running -- CPU_ReadMem(3 bytes @ 0x20000025) - Data: C0 28 C6  returns 0x00 (0001ms, 0740ms total)
T6B24 008:698 JLINK_ReadMem (0x2000026C, 0x0002 Bytes, ...) -- CPU is running -- CPU_ReadMem(2 bytes @ 0x2000026C) - Data: 00 00  returns 0x00 (0001ms, 0741ms total)
T6B24 008:699 JLINK_ReadMem (0x2000026E, 0x0002 Bytes, ...) -- CPU is running -- CPU_ReadMem(2 bytes @ 0x2000026E) - Data: 00 00  returns 0x00 (0001ms, 0742ms total)
T6B24 008:700 JLINK_ReadMem (0x20000360, 0x0020 Bytes, ...) -- CPU is running -- CPU_ReadMem(32 bytes @ 0x20000360) - Data: 00 00 00 00 00 00 00 00 00 00 00 00 00 00 00 00 ...  returns 0x00 (0001ms, 0743ms total)
T6B24 008:701 JLINK_ReadMem (0x20000270, 0x0002 Bytes, ...) -- CPU is running -- CPU_ReadMem(2 bytes @ 0x20000270) - Data: 00 00  returns 0x00 (0000ms, 0743ms total)
T6B24 008:701 JLINK_ReadMem (0x20000272, 0x0002 Bytes, ...) -- CPU is running -- CPU_ReadMem(2 bytes @ 0x20000272) - Data: 00 00  returns 0x00 (0001ms, 0744ms total)
T6B24 008:702 JLINK_ReadMem (0x20000030, 0x0002 Bytes, ...) -- CPU is running -- CPU_ReadMem(2 bytes @ 0x20000030) - Data: 00 00  returns 0x00 (0001ms, 0745ms total)
T6B24 008:703 JLINK_ReadMem (0x2000001C, 0x0004 Bytes, ...) -- CPU is running -- CPU_ReadMem(4 bytes @ 0x2000001C) - Data: 00 00 00 00  returns 0x00 (0000ms, 0745ms total)
T6B24 008:703 JLINK_ReadMem (0x20000278, 0x0001 Bytes, ...) -- CPU is running -- CPU_ReadMem(1 bytes @ 0x20000278) - Data: 00  returns 0x00 (0001ms, 0746ms total)
T6B24 008:704 JLINK_ReadMem (0x20000274, 0x0004 Bytes, ...) -- CPU is running -- CPU_ReadMem(4 bytes @ 0x20000274) - Data: 00 00 00 00  returns 0x00 (0001ms, 0747ms total)
T6B24 008:705 JLINK_ReadMem (0x40026400, 0x00CC Bytes, ...) -- CPU is running -- CPU_ReadMem(204 bytes @ 0x40026400) - Data: 00 00 00 00 00 00 00 00 00 00 00 00 00 00 00 00 ...  returns 0x00 (0003ms, 0750ms total)
T6B24 008:708 JLINK_ReadMem (0x400264CC, 0x0004 Bytes, ...) -- CPU is running -- CPU_ReadMem(4 bytes @ 0x400264CC) - Data: 20 00 00 00  returns 0x00 (0000ms, 0750ms total)
T6B24 008:811 JLINK_ReadMem (0x40010400, 0x0010 Bytes, ...) -- CPU is running -- CPU_ReadMem(16 bytes @ 0x40010400) - Data: 21 00 00 00 20 00 00 00 00 00 00 00 00 00 00 00  returns 0x00 (0001ms, 0751ms total)
T6B24 008:812 JLINK_ReadMem (0x40010410, 0x0004 Bytes, ...) -- CPU is running -- CPU_ReadMem(4 bytes @ 0x40010410) - Data: 01 00 00 00  returns 0x00 (0001ms, 0752ms total)
T6B24 008:813 JLINK_ReadMem (0x40010418, 0x0014 Bytes, ...) -- CPU is running -- CPU_ReadMem(20 bytes @ 0x40010418) - Data: 68 68 00 00 00 00 00 00 11 00 00 00 52 03 00 00 ...  returns 0x00 (0001ms, 0753ms total)
T6B24 008:814 JLINK_ReadMem (0x4001042C, 0x0004 Bytes, ...) -- CPU is running -- CPU_ReadMem(4 bytes @ 0x4001042C) - Data: 67 10 00 00  returns 0x00 (0000ms, 0753ms total)
T6B24 008:814 JLINK_ReadMem (0x40010430, 0x0004 Bytes, ...) -- CPU is running -- CPU_ReadMem(4 bytes @ 0x40010430) - Data: 00 00 00 00  returns 0x00 (0001ms, 0754ms total)
T6B24 008:815 JLINK_ReadMem (0x40010434, 0x000C Bytes, ...) -- CPU is running -- CPU_ReadMem(12 bytes @ 0x40010434) - Data: 00 00 00 00 00 00 00 00 00 00 00 00  returns 0x00 (0001ms, 0755ms total)
T6B24 008:816 JLINK_ReadMem (0x40010440, 0x0004 Bytes, ...) -- CPU is running -- CPU_ReadMem(4 bytes @ 0x40010440) - Data: 00 00 00 00  returns 0x00 (0000ms, 0755ms total)
T6B24 008:816 JLINK_ReadMem (0x40010444, 0x0004 Bytes, ...) -- CPU is running -- CPU_ReadMem(4 bytes @ 0x40010444) - Data: 00 A0 00 00  returns 0x00 (0001ms, 0756ms total)
T6B24 008:817 JLINK_ReadMem (0x40010448, 0x0004 Bytes, ...) -- CPU is running -- CPU_ReadMem(4 bytes @ 0x40010448) - Data: 00 00 00 00  returns 0x00 (0001ms, 0757ms total)
T6B24 008:818 JLINK_ReadMem (0x4001044C, 0x0004 Bytes, ...) -- CPU is running -- CPU_ReadMem(4 bytes @ 0x4001044C) - Data: 21 00 00 00  returns 0x00 (0000ms, 0757ms total)
T6B24 008:825 JLINK_ReadMem (0x40000400, 0x0010 Bytes, ...) -- CPU is running -- CPU_ReadMem(16 bytes @ 0x40000400) - Data: 21 00 00 00 20 00 00 00 00 00 00 00 00 00 00 00  returns 0x00 (0001ms, 0758ms total)
T6B24 008:826 JLINK_ReadMem (0x40000410, 0x0004 Bytes, ...) -- CPU is running -- CPU_ReadMem(4 bytes @ 0x40000410) - Data: 01 00 00 00  returns 0x00 (0001ms, 0759ms total)
T6B24 008:827 JLINK_ReadMem (0x40000418, 0x0014 Bytes, ...) -- CPU is running -- CPU_ReadMem(20 bytes @ 0x40000418) - Data: 68 68 00 00 00 00 00 00 11 00 00 00 B4 0E 00 00 ...  returns 0x00 (0001ms, 0760ms total)
T6B24 008:828 JLINK_ReadMem (0x4000042C, 0x0004 Bytes, ...) -- CPU is running -- CPU_ReadMem(4 bytes @ 0x4000042C) - Data: 67 10 00 00  returns 0x00 (0001ms, 0761ms total)
T6B24 008:829 JLINK_ReadMem (0x40000434, 0x000C Bytes, ...) -- CPU is running -- CPU_ReadMem(12 bytes @ 0x40000434) - Data: 00 00 00 00 00 00 00 00 00 00 00 00  returns 0x00 (0000ms, 0761ms total)
T6B24 008:829 JLINK_ReadMem (0x40000440, 0x0004 Bytes, ...) -- CPU is running -- CPU_ReadMem(4 bytes @ 0x40000440) - Data: 00 00 00 00  returns 0x00 (0001ms, 0762ms total)
T6B24 008:830 JLINK_ReadMem (0x40000448, 0x0004 Bytes, ...) -- CPU is running -- CPU_ReadMem(4 bytes @ 0x40000448) - Data: 00 00 00 00  returns 0x00 (0001ms, 0763ms total)
T6B24 008:831 JLINK_ReadMem (0x4000044C, 0x0004 Bytes, ...) -- CPU is running -- CPU_ReadMem(4 bytes @ 0x4000044C) - Data: 21 00 00 00  returns 0x00 (0001ms, 0764ms total)
T746C 008:838 JLINK_IsHalted()  returns FALSE (0001ms, 0765ms total)
T746C 008:940 JLINK_IsHalted()  returns FALSE (0000ms, 0764ms total)
T746C 009:042 JLINK_IsHalted()  returns FALSE (0000ms, 0764ms total)
T746C 009:143 JLINK_IsHalted()  returns FALSE (0000ms, 0764ms total)
T746C 009:245 JLINK_ReadMemU32(0xE0001004, 0x0001 Items, ...) -- CPU is running -- CPU_ReadMem(4 bytes @ 0xE0001004) - Data: DD F0 A7 0A  returns 0x01 (0000ms, 0764ms total)
T6B24 009:248 JLINK_ReadMem (0x20000000, 0x0004 Bytes, ...) -- CPU is running -- CPU_ReadMem(4 bytes @ 0x20000000) - Data: 00 00 00 00  returns 0x00 (0000ms, 0764ms total)
T6B24 009:248 JLINK_ReadMem (0x20000036, 0x0002 Bytes, ...) -- CPU is running -- CPU_ReadMem(2 bytes @ 0x20000036) - Data: E1 0E  returns 0x00 (0001ms, 0765ms total)
T6B24 009:249 JLINK_ReadMem (0x20000034, 0x0002 Bytes, ...) -- CPU is running -- CPU_ReadMem(2 bytes @ 0x20000034) - Data: 92 01  returns 0x00 (0000ms, 0765ms total)
T6B24 009:249 JLINK_ReadMem (0x20000025, 0x0003 Bytes, ...) -- CPU is running -- CPU_ReadMem(3 bytes @ 0x20000025) - Data: 00 00 00  returns 0x00 (0001ms, 0766ms total)
T6B24 009:250 JLINK_ReadMem (0x2000026C, 0x0002 Bytes, ...) -- CPU is running -- CPU_ReadMem(2 bytes @ 0x2000026C) - Data: 00 00  returns 0x00 (0001ms, 0767ms total)
T6B24 009:251 JLINK_ReadMem (0x2000026E, 0x0002 Bytes, ...) -- CPU is running -- CPU_ReadMem(2 bytes @ 0x2000026E) - Data: 00 00  returns 0x00 (0001ms, 0768ms total)
T6B24 009:252 JLINK_ReadMem (0x20000360, 0x0020 Bytes, ...) -- CPU is running -- CPU_ReadMem(32 bytes @ 0x20000360) - Data: 00 00 00 00 00 00 00 00 00 00 00 00 00 00 00 00 ...  returns 0x00 (0001ms, 0769ms total)
T6B24 009:253 JLINK_ReadMem (0x20000270, 0x0002 Bytes, ...) -- CPU is running -- CPU_ReadMem(2 bytes @ 0x20000270) - Data: 00 00  returns 0x00 (0001ms, 0770ms total)
T6B24 009:254 JLINK_ReadMem (0x20000272, 0x0002 Bytes, ...) -- CPU is running -- CPU_ReadMem(2 bytes @ 0x20000272) - Data: 00 00  returns 0x00 (0001ms, 0771ms total)
T6B24 009:255 JLINK_ReadMem (0x20000030, 0x0002 Bytes, ...) -- CPU is running -- CPU_ReadMem(2 bytes @ 0x20000030) - Data: 00 00  returns 0x00 (0000ms, 0771ms total)
T6B24 009:256 JLINK_ReadMem (0x2000001C, 0x0004 Bytes, ...) -- CPU is running -- CPU_ReadMem(4 bytes @ 0x2000001C) - Data: 0E 00 00 00  returns 0x00 (0000ms, 0771ms total)
T6B24 009:257 JLINK_ReadMem (0x20000278, 0x0001 Bytes, ...) -- CPU is running -- CPU_ReadMem(1 bytes @ 0x20000278) - Data: 00  returns 0x00 (0001ms, 0772ms total)
T6B24 009:258 JLINK_ReadMem (0x20000274, 0x0004 Bytes, ...) -- CPU is running -- CPU_ReadMem(4 bytes @ 0x20000274) - Data: 00 00 00 00  returns 0x00 (0000ms, 0772ms total)
T6B24 009:258 JLINK_ReadMem (0x40026400, 0x00CC Bytes, ...) -- CPU is running -- CPU_ReadMem(204 bytes @ 0x40026400) - Data: 00 00 00 00 00 00 00 00 00 00 00 00 00 00 00 00 ...  returns 0x00 (0003ms, 0775ms total)
T6B24 009:261 JLINK_ReadMem (0x400264CC, 0x0004 Bytes, ...) -- CPU is running -- CPU_ReadMem(4 bytes @ 0x400264CC) - Data: 20 00 00 00  returns 0x00 (0001ms, 0776ms total)
T6B24 009:283 JLINK_ReadMem (0x40010400, 0x0010 Bytes, ...) -- CPU is running -- CPU_ReadMem(16 bytes @ 0x40010400) - Data: 31 00 00 00 20 00 00 00 00 00 00 00 00 00 00 00  returns 0x00 (0001ms, 0777ms total)
T6B24 009:284 JLINK_ReadMem (0x40010410, 0x0004 Bytes, ...) -- CPU is running -- CPU_ReadMem(4 bytes @ 0x40010410) - Data: 07 00 00 00  returns 0x00 (0001ms, 0778ms total)
T6B24 009:285 JLINK_ReadMem (0x40010418, 0x0014 Bytes, ...) -- CPU is running -- CPU_ReadMem(20 bytes @ 0x40010418) - Data: 68 68 00 00 00 00 00 00 11 00 00 00 A3 0E 00 00 ...  returns 0x00 (0001ms, 0779ms total)
T6B24 009:286 JLINK_ReadMem (0x4001042C, 0x0004 Bytes, ...) -- CPU is running -- CPU_ReadMem(4 bytes @ 0x4001042C) - Data: 67 10 00 00  returns 0x00 (0000ms, 0779ms total)
T6B24 009:286 JLINK_ReadMem (0x40010430, 0x0004 Bytes, ...) -- CPU is running -- CPU_ReadMem(4 bytes @ 0x40010430) - Data: 00 00 00 00  returns 0x00 (0001ms, 0780ms total)
T6B24 009:287 JLINK_ReadMem (0x40010434, 0x000C Bytes, ...) -- CPU is running -- CPU_ReadMem(12 bytes @ 0x40010434) - Data: 68 10 00 00 D6 0E 00 00 00 00 00 00  returns 0x00 (0001ms, 0781ms total)
T6B24 009:288 JLINK_ReadMem (0x40010440, 0x0004 Bytes, ...) -- CPU is running -- CPU_ReadMem(4 bytes @ 0x40010440) - Data: 00 00 00 00  returns 0x00 (0001ms, 0782ms total)
T6B24 009:289 JLINK_ReadMem (0x40010444, 0x0004 Bytes, ...) -- CPU is running -- CPU_ReadMem(4 bytes @ 0x40010444) - Data: 00 A0 00 00  returns 0x00 (0000ms, 0782ms total)
T6B24 009:289 JLINK_ReadMem (0x40010448, 0x0004 Bytes, ...) -- CPU is running -- CPU_ReadMem(4 bytes @ 0x40010448) - Data: 00 00 00 00  returns 0x00 (0001ms, 0783ms total)
T6B24 009:290 JLINK_ReadMem (0x4001044C, 0x0004 Bytes, ...) -- CPU is running -- CPU_ReadMem(4 bytes @ 0x4001044C) - Data: 21 00 00 00  returns 0x00 (0001ms, 0784ms total)
T6B24 009:294 JLINK_ReadMem (0x40000400, 0x0010 Bytes, ...) -- CPU is running -- CPU_ReadMem(16 bytes @ 0x40000400) - Data: 31 00 00 00 20 00 00 00 00 00 00 00 00 00 00 00  returns 0x00 (0001ms, 0785ms total)
T6B24 009:295 JLINK_ReadMem (0x40000410, 0x0004 Bytes, ...) -- CPU is running -- CPU_ReadMem(4 bytes @ 0x40000410) - Data: 07 00 00 00  returns 0x00 (0001ms, 0786ms total)
T6B24 009:296 JLINK_ReadMem (0x40000418, 0x0014 Bytes, ...) -- CPU is running -- CPU_ReadMem(20 bytes @ 0x40000418) - Data: 68 68 00 00 00 00 00 00 11 00 00 00 0A 0D 00 00 ...  returns 0x00 (0001ms, 0787ms total)
T6B24 009:297 JLINK_ReadMem (0x4000042C, 0x0004 Bytes, ...) -- CPU is running -- CPU_ReadMem(4 bytes @ 0x4000042C) - Data: 67 10 00 00  returns 0x00 (0000ms, 0787ms total)
T6B24 009:297 JLINK_ReadMem (0x40000434, 0x000C Bytes, ...) -- CPU is running -- CPU_ReadMem(12 bytes @ 0x40000434) - Data: 68 10 00 00 D9 0E 00 00 00 00 00 00  returns 0x00 (0001ms, 0788ms total)
T6B24 009:298 JLINK_ReadMem (0x40000440, 0x0004 Bytes, ...) -- CPU is running -- CPU_ReadMem(4 bytes @ 0x40000440) - Data: 00 00 00 00  returns 0x00 (0001ms, 0789ms total)
T6B24 009:299 JLINK_ReadMem (0x40000448, 0x0004 Bytes, ...) -- CPU is running -- CPU_ReadMem(4 bytes @ 0x40000448) - Data: 00 00 00 00  returns 0x00 (0001ms, 0790ms total)
T6B24 009:300 JLINK_ReadMem (0x4000044C, 0x0004 Bytes, ...) -- CPU is running -- CPU_ReadMem(4 bytes @ 0x4000044C) - Data: 21 00 00 00  returns 0x00 (0000ms, 0790ms total)
T746C 009:307 JLINK_IsHalted()  returns FALSE (0001ms, 0791ms total)
T746C 009:409 JLINK_IsHalted()  returns FALSE (0000ms, 0790ms total)
T746C 009:510 JLINK_IsHalted()  returns FALSE (0000ms, 0790ms total)
T746C 009:612 JLINK_IsHalted()  returns FALSE (0000ms, 0790ms total)
T746C 009:713 JLINK_IsHalted()  returns FALSE (0000ms, 0790ms total)
T746C 009:815 JLINK_ReadMemU32(0xE0001004, 0x0001 Items, ...) -- CPU is running -- CPU_ReadMem(4 bytes @ 0xE0001004) - Data: E3 8D 61 10  returns 0x01 (0000ms, 0790ms total)
T6B24 009:817 JLINK_ReadMem (0x20000000, 0x0004 Bytes, ...) -- CPU is running -- CPU_ReadMem(4 bytes @ 0x20000000) - Data: 00 00 00 00  returns 0x00 (0001ms, 0791ms total)
T6B24 009:818 JLINK_ReadMem (0x20000036, 0x0002 Bytes, ...) -- CPU is running -- CPU_ReadMem(2 bytes @ 0x20000036) - Data: E1 0E  returns 0x00 (0001ms, 0792ms total)
T6B24 009:819 JLINK_ReadMem (0x20000034, 0x0002 Bytes, ...) -- CPU is running -- CPU_ReadMem(2 bytes @ 0x20000034) - Data: 90 01  returns 0x00 (0000ms, 0792ms total)
T6B24 009:820 JLINK_ReadMem (0x20000025, 0x0003 Bytes, ...) -- CPU is running -- CPU_ReadMem(3 bytes @ 0x20000025) - Data: 00 00 00  returns 0x00 (0000ms, 0792ms total)
T6B24 009:821 JLINK_ReadMem (0x2000026C, 0x0002 Bytes, ...) -- CPU is running -- CPU_ReadMem(2 bytes @ 0x2000026C) - Data: 00 00  returns 0x00 (0001ms, 0793ms total)
T6B24 009:822 JLINK_ReadMem (0x2000026E, 0x0002 Bytes, ...) -- CPU is running -- CPU_ReadMem(2 bytes @ 0x2000026E) - Data: 00 00  returns 0x00 (0000ms, 0793ms total)
T6B24 009:822 JLINK_ReadMem (0x20000360, 0x0020 Bytes, ...) -- CPU is running -- CPU_ReadMem(32 bytes @ 0x20000360) - Data: 00 00 00 00 00 00 00 00 00 00 00 00 00 00 00 00 ...  returns 0x00 (0001ms, 0794ms total)
T6B24 009:823 JLINK_ReadMem (0x20000270, 0x0002 Bytes, ...) -- CPU is running -- CPU_ReadMem(2 bytes @ 0x20000270) - Data: 00 00  returns 0x00 (0001ms, 0795ms total)
T6B24 009:824 JLINK_ReadMem (0x20000272, 0x0002 Bytes, ...) -- CPU is running -- CPU_ReadMem(2 bytes @ 0x20000272) - Data: 00 00  returns 0x00 (0000ms, 0795ms total)
T6B24 009:824 JLINK_ReadMem (0x20000030, 0x0002 Bytes, ...) -- CPU is running -- CPU_ReadMem(2 bytes @ 0x20000030) - Data: 00 00  returns 0x00 (0001ms, 0796ms total)
T6B24 009:825 JLINK_ReadMem (0x2000001C, 0x0004 Bytes, ...) -- CPU is running -- CPU_ReadMem(4 bytes @ 0x2000001C) - Data: 80 00 00 00  returns 0x00 (0001ms, 0797ms total)
T6B24 009:826 JLINK_ReadMem (0x20000278, 0x0001 Bytes, ...) -- CPU is running -- CPU_ReadMem(1 bytes @ 0x20000278) - Data: 00  returns 0x00 (0001ms, 0798ms total)
T6B24 009:827 JLINK_ReadMem (0x20000274, 0x0004 Bytes, ...) -- CPU is running -- CPU_ReadMem(4 bytes @ 0x20000274) - Data: 00 00 00 00  returns 0x00 (0000ms, 0798ms total)
T6B24 009:827 JLINK_ReadMem (0x40026400, 0x00CC Bytes, ...) -- CPU is running -- CPU_ReadMem(204 bytes @ 0x40026400) - Data: 00 00 00 00 00 00 00 00 00 00 00 00 00 00 00 00 ...  returns 0x00 (0002ms, 0800ms total)
T6B24 009:829 JLINK_ReadMem (0x400264CC, 0x0004 Bytes, ...) -- CPU is running -- CPU_ReadMem(4 bytes @ 0x400264CC) - Data: 20 00 00 00  returns 0x00 (0001ms, 0801ms total)
T6B24 009:858 JLINK_ReadMem (0x40010400, 0x0010 Bytes, ...) -- CPU is running -- CPU_ReadMem(16 bytes @ 0x40010400) - Data: 21 00 00 00 20 00 00 00 00 00 00 00 00 00 00 00  returns 0x00 (0001ms, 0802ms total)
T6B24 009:859 JLINK_ReadMem (0x40010410, 0x0004 Bytes, ...) -- CPU is running -- CPU_ReadMem(4 bytes @ 0x40010410) - Data: 07 00 00 00  returns 0x00 (0001ms, 0803ms total)
T6B24 009:860 JLINK_ReadMem (0x40010418, 0x0014 Bytes, ...) -- CPU is running -- CPU_ReadMem(20 bytes @ 0x40010418) - Data: 68 68 00 00 00 00 00 00 11 00 00 00 4E 04 00 00 ...  returns 0x00 (0001ms, 0804ms total)
T6B24 009:861 JLINK_ReadMem (0x4001042C, 0x0004 Bytes, ...) -- CPU is running -- CPU_ReadMem(4 bytes @ 0x4001042C) - Data: 67 10 00 00  returns 0x00 (0001ms, 0805ms total)
T6B24 009:862 JLINK_ReadMem (0x40010430, 0x0004 Bytes, ...) -- CPU is running -- CPU_ReadMem(4 bytes @ 0x40010430) - Data: 00 00 00 00  returns 0x00 (0000ms, 0805ms total)
T6B24 009:862 JLINK_ReadMem (0x40010434, 0x000C Bytes, ...) -- CPU is running -- CPU_ReadMem(12 bytes @ 0x40010434) - Data: 68 10 00 00 06 0F 00 00 00 00 00 00  returns 0x00 (0001ms, 0806ms total)
T6B24 009:863 JLINK_ReadMem (0x40010440, 0x0004 Bytes, ...) -- CPU is running -- CPU_ReadMem(4 bytes @ 0x40010440) - Data: 00 00 00 00  returns 0x00 (0001ms, 0807ms total)
T6B24 009:864 JLINK_ReadMem (0x40010444, 0x0004 Bytes, ...) -- CPU is running -- CPU_ReadMem(4 bytes @ 0x40010444) - Data: 00 A0 00 00  returns 0x00 (0001ms, 0808ms total)
T6B24 009:865 JLINK_ReadMem (0x40010448, 0x0004 Bytes, ...) -- CPU is running -- CPU_ReadMem(4 bytes @ 0x40010448) - Data: 00 00 00 00  returns 0x00 (0000ms, 0808ms total)
T6B24 009:865 JLINK_ReadMem (0x4001044C, 0x0004 Bytes, ...) -- CPU is running -- CPU_ReadMem(4 bytes @ 0x4001044C) - Data: 31 00 00 00  returns 0x00 (0001ms, 0809ms total)
T6B24 009:869 JLINK_ReadMem (0x40000400, 0x0010 Bytes, ...) -- CPU is running -- CPU_ReadMem(16 bytes @ 0x40000400) - Data: 31 00 00 00 20 00 00 00 00 00 00 00 00 00 00 00  returns 0x00 (0001ms, 0810ms total)
T6B24 009:870 JLINK_ReadMem (0x40000410, 0x0004 Bytes, ...) -- CPU is running -- CPU_ReadMem(4 bytes @ 0x40000410) - Data: 07 00 00 00  returns 0x00 (0000ms, 0810ms total)
T6B24 009:870 JLINK_ReadMem (0x40000418, 0x0014 Bytes, ...) -- CPU is running -- CPU_ReadMem(20 bytes @ 0x40000418) - Data: 68 68 00 00 00 00 00 00 11 00 00 00 F2 07 00 00 ...  returns 0x00 (0001ms, 0811ms total)
T6B24 009:871 JLINK_ReadMem (0x4000042C, 0x0004 Bytes, ...) -- CPU is running -- CPU_ReadMem(4 bytes @ 0x4000042C) - Data: 67 10 00 00  returns 0x00 (0001ms, 0812ms total)
T6B24 009:872 JLINK_ReadMem (0x40000434, 0x000C Bytes, ...) -- CPU is running -- CPU_ReadMem(12 bytes @ 0x40000434) - Data: 68 10 00 00 07 0F 00 00 00 00 00 00  returns 0x00 (0001ms, 0813ms total)
T6B24 009:873 JLINK_ReadMem (0x40000440, 0x0004 Bytes, ...) -- CPU is running -- CPU_ReadMem(4 bytes @ 0x40000440) - Data: 00 00 00 00  returns 0x00 (0000ms, 0813ms total)
T6B24 009:873 JLINK_ReadMem (0x40000448, 0x0004 Bytes, ...) -- CPU is running -- CPU_ReadMem(4 bytes @ 0x40000448) - Data: 00 00 00 00  returns 0x00 (0001ms, 0814ms total)
T6B24 009:874 JLINK_ReadMem (0x4000044C, 0x0004 Bytes, ...) -- CPU is running -- CPU_ReadMem(4 bytes @ 0x4000044C) - Data: 31 00 00 00  returns 0x00 (0001ms, 0815ms total)
T746C 009:877 JLINK_IsHalted()  returns FALSE (0001ms, 0816ms total)
T746C 009:979 JLINK_IsHalted()  returns FALSE (0000ms, 0815ms total)
T746C 010:080 JLINK_IsHalted()  returns FALSE (0000ms, 0815ms total)
T746C 010:182 JLINK_IsHalted()  returns FALSE (0000ms, 0815ms total)
T746C 010:283 JLINK_IsHalted()  returns FALSE (0000ms, 0815ms total)
T746C 010:385 JLINK_ReadMemU32(0xE0001004, 0x0001 Items, ...) -- CPU is running -- CPU_ReadMem(4 bytes @ 0xE0001004) - Data: BB 35 1B 16  returns 0x01 (0000ms, 0815ms total)
T6B24 010:386 JLINK_ReadMem (0x20000000, 0x0004 Bytes, ...) -- CPU is running -- CPU_ReadMem(4 bytes @ 0x20000000) - Data: 00 00 00 00  returns 0x00 (0000ms, 0815ms total)
T6B24 010:386 JLINK_ReadMem (0x20000036, 0x0002 Bytes, ...) -- CPU is running -- CPU_ReadMem(2 bytes @ 0x20000036) - Data: E1 0E  returns 0x00 (0001ms, 0816ms total)
T6B24 010:387 JLINK_ReadMem (0x20000034, 0x0002 Bytes, ...) -- CPU is running -- CPU_ReadMem(2 bytes @ 0x20000034) - Data: 92 01  returns 0x00 (0000ms, 0816ms total)
T6B24 010:388 JLINK_ReadMem (0x20000025, 0x0003 Bytes, ...) -- CPU is running -- CPU_ReadMem(3 bytes @ 0x20000025) - Data: 00 00 00  returns 0x00 (0000ms, 0816ms total)
T6B24 010:389 JLINK_ReadMem (0x2000026C, 0x0002 Bytes, ...) -- CPU is running -- CPU_ReadMem(2 bytes @ 0x2000026C) - Data: 00 00  returns 0x00 (0001ms, 0817ms total)
T6B24 010:390 JLINK_ReadMem (0x2000026E, 0x0002 Bytes, ...) -- CPU is running -- CPU_ReadMem(2 bytes @ 0x2000026E) - Data: 00 00  returns 0x00 (0000ms, 0817ms total)
T6B24 010:390 JLINK_ReadMem (0x20000360, 0x0020 Bytes, ...) -- CPU is running -- CPU_ReadMem(32 bytes @ 0x20000360) - Data: 00 00 00 00 00 00 00 00 00 00 00 00 00 00 00 00 ...  returns 0x00 (0001ms, 0818ms total)
T6B24 010:391 JLINK_ReadMem (0x20000270, 0x0002 Bytes, ...) -- CPU is running -- CPU_ReadMem(2 bytes @ 0x20000270) - Data: 00 00  returns 0x00 (0001ms, 0819ms total)
